(547.907000) can0 F0#0001D0861902
(547.910000) can0 100#860A8201
(547.913000) can0 101#5002
(547.915000) can0 102#0000
(547.918000) can0 110#7B05C20162
(547.921000) can0 111#400139
(547.924000) can0 120#342F2F00
(548.926000) can0 F0#0001D0861A02
(548.935000) can0 100#790A8201
(548.937000) can0 101#4C02
(548.940000) can0 102#0000
(548.944000) can0 110#8305C20162
(548.954000) can0 111#40013A
(548.956000) can0 120#342F2F00
(549.959000) can0 F0#0001D0861B02
(549.962000) can0 100#6D0A8201
(549.965000) can0 101#4802
(549.967000) can0 102#0000
(549.970000) can0 110#7305C20162
(549.973000) can0 111#400139
(549.977000) can0 120#342E2F00
(550.986000) can0 F0#0001D0861C02
(550.989000) can0 100#600A8201
(550.992000) can0 101#4402
(550.994000) can0 102#0000
(550.997000) can0 110#7B05C20162
(551.000000) can0 111#400139
(551.003000) can0 120#332E2E00
(552.005000) can0 F0#0001D0861D02
(552.008000) can0 100#540A8201
(552.011000) can0 101#4002
(552.013000) can0 102#0000
(552.016000) can0 110#7C05C20162
(552.019000) can0 111#400139
(552.022000) can0 120#332E2E00
(553.024000) can0 F0#0001D0861E02
(553.027000) can0 100#430A8201
(553.030000) can0 101#3B02
(553.032000) can0 102#0000
(553.035000) can0 110#7A05C20162
(553.038000) can0 111#400139
(553.041000) can0 120#302C2C00
(554.043000) can0 F0#0001D0861F02
(554.046000) can0 100#330A8201
(554.049000) can0 101#3602
(554.051000) can0 102#0000
(554.054000) can0 110#6B05C20162
(554.057000) can0 111#40013A
(554.060000) can0 120#302B2B00
